Time[s], Channel 0, Channel 1, Channel 2, Channel 3, Channel 4, Channel 5, Channel 6, Channel 7
0.000000000000000, 1, 1, 0, 0, 0, 0, 0, 0
1.848452541666667, 0, 1, 0, 0, 0, 0, 0, 0
1.848478541666667, 1, 1, 0, 0, 0, 0, 0, 0
1.848504541666667, 0, 1, 0, 0, 0, 0, 0, 0
1.848634583333334, 1, 1, 0, 0, 0, 0, 0, 0
1.848660583333333, 0, 1, 0, 0, 0, 0, 0, 0
1.848686583333333, 1, 1, 0, 0, 0, 0, 0, 0
1.848712583333334, 0, 1, 0, 0, 0, 0, 0, 0
1.848790583333333, 1, 1, 0, 0, 0, 0, 0, 0
1.848816583333333, 0, 1, 0, 0, 0, 0, 0, 0
1.848842583333334, 1, 1, 0, 0, 0, 0, 0, 0
1.848868583333333, 0, 1, 0, 0, 0, 0, 0, 0
1.848894583333333, 1, 1, 0, 0, 0, 0, 0, 0
1.848920583333334, 0, 1, 0, 0, 0, 0, 0, 0
1.848946583333333, 1, 1, 0, 0, 0, 0, 0, 0
1.848972583333333, 0, 1, 0, 0, 0, 0, 0, 0
1.848998583333334, 1, 1, 0, 0, 0, 0, 0, 0
1.849024583333333, 0, 1, 0, 0, 0, 0, 0, 0
1.849076583333333, 1, 1, 0, 0, 0, 0, 0, 0
1.849102583333333, 0, 1, 0, 0, 0, 0, 0, 0
1.849154583333333, 1, 1, 0, 0, 0, 0, 0, 0
1.849180583333333, 0, 1, 0, 0, 0, 0, 0, 0
1.849206583333334, 1, 1, 0, 0, 0, 0, 0, 0
1.849232583333333, 0, 1, 0, 0, 0, 0, 0, 0
1.849258583333333, 1, 1, 0, 0, 0, 0, 0, 0
1.849284583333333, 0, 1, 0, 0, 0, 0, 0, 0
1.849310583333333, 1, 1, 0, 0, 0, 0, 0, 0
1.849362583333333, 0, 1, 0, 0, 0, 0, 0, 0
1.849466583333333, 1, 1, 0, 0, 0, 0, 0, 0
1.923421708333333, 1, 0, 0, 0, 0, 0, 0, 0
1.923447708333333, 1, 1, 0, 0, 0, 0, 0, 0
1.923473708333334, 1, 0, 0, 0, 0, 0, 0, 0
1.923499708333333, 1, 1, 0, 0, 0, 0, 0, 0
1.923525708333333, 1, 0, 0, 0, 0, 0, 0, 0
1.923603708333333, 1, 1, 0, 0, 0, 0, 0, 0
1.923629708333333, 1, 0, 0, 0, 0, 0, 0, 0
1.923655708333333, 1, 1, 0, 0, 0, 0, 0, 0
1.923681708333334, 1, 0, 0, 0, 0, 0, 0, 0
1.923759708333334, 1, 1, 0, 0, 0, 0, 0, 0
1.923811750000000, 1, 0, 0, 0, 0, 0, 0, 0
1.923863750000000, 1, 1, 0, 0, 0, 0, 0, 0
1.923889750000000, 1, 0, 0, 0, 0, 0, 0, 0
1.923915750000000, 1, 1, 0, 0, 0, 0, 0, 0
1.923941750000000, 1, 0, 0, 0, 0, 0, 0, 0
1.923967750000000, 1, 1, 0, 0, 0, 0, 0, 0
1.923993750000000, 1, 0, 0, 0, 0, 0, 0, 0
1.924019750000000, 1, 1, 0, 0, 0, 0, 0, 0
1.924071750000000, 1, 0, 0, 0, 0, 0, 0, 0
1.924123750000000, 1, 1, 0, 0, 0, 0, 0, 0
1.924149791666667, 1, 0, 0, 0, 0, 0, 0, 0
1.924175791666667, 1, 1, 0, 0, 0, 0, 0, 0
1.924201791666667, 1, 0, 0, 0, 0, 0, 0, 0
1.924227791666667, 1, 1, 0, 0, 0, 0, 0, 0
1.924279791666667, 1, 0, 0, 0, 0, 0, 0, 0
1.924331791666667, 1, 1, 0, 0, 0, 0, 0, 0
1.924383791666667, 1, 0, 0, 0, 0, 0, 0, 0
1.924435791666667, 1, 1, 0, 0, 0, 0, 0, 0
1.924461791666667, 1, 0, 0, 0, 0, 0, 0, 0
1.924513791666667, 1, 1, 0, 0, 0, 0, 0, 0
1.924539833333333, 1, 0, 0, 0, 0, 0, 0, 0
1.924591833333333, 1, 1, 0, 0, 0, 0, 0, 0
1.924643833333334, 1, 0, 0, 0, 0, 0, 0, 0
1.924695833333333, 1, 1, 0, 0, 0, 0, 0, 0
1.924721833333333, 1, 0, 0, 0, 0, 0, 0, 0
1.924747833333333, 1, 1, 0, 0, 0, 0, 0, 0
1.924825833333333, 1, 0, 0, 0, 0, 0, 0, 0
1.924851833333334, 1, 1, 0, 0, 0, 0, 0, 0
1.924903875000000, 1, 0, 0, 0, 0, 0, 0, 0
1.924955875000000, 1, 1, 0, 0, 0, 0, 0, 0
1.924981875000000, 1, 0, 0, 0, 0, 0, 0, 0
1.925137875000000, 1, 1, 0, 0, 0, 0, 0, 0
1.925163875000000, 1, 0, 0, 0, 0, 0, 0, 0
1.925215875000000, 1, 1, 0, 0, 0, 0, 0, 0
1.925241875000000, 1, 0, 0, 0, 0, 0, 0, 0
1.925293916666667, 1, 1, 0, 0, 0, 0, 0, 0
1.925345916666667, 1, 0, 0, 0, 0, 0, 0, 0
1.925371916666667, 1, 1, 0, 0, 0, 0, 0, 0
1.925449916666667, 1, 0, 0, 0, 0, 0, 0, 0
1.925475916666667, 1, 1, 0, 0, 0, 0, 0, 0
1.925501916666667, 1, 0, 0, 0, 0, 0, 0, 0
1.925527916666667, 1, 1, 0, 0, 0, 0, 0, 0
1.925553916666667, 1, 0, 0, 0, 0, 0, 0, 0
1.925631958333333, 1, 1, 0, 0, 0, 0, 0, 0
1.925683958333333, 1, 0, 0, 0, 0, 0, 0, 0
1.925735958333334, 1, 1, 1, 0, 0, 0, 0, 0
1.925736000000000, 1, 1, 0, 0, 0, 0, 0, 0
1.925761958333333, 1, 0, 0, 0, 0, 0, 0, 0
1.925813958333333, 1, 1, 0, 0, 0, 0, 0, 0
1.925891958333333, 1, 0, 0, 0, 0, 0, 0, 0
1.925917958333333, 1, 1, 0, 0, 0, 0, 0, 0
1.925943958333334, 1, 0, 0, 0, 0, 0, 0, 0
1.925996000000000, 1, 1, 0, 0, 0, 0, 0, 0
1.926022000000000, 1, 0, 0, 0, 0, 0, 0, 0
1.926048000000000, 1, 1, 0, 0, 0, 0, 0, 0
1.926074000000000, 1, 0, 0, 0, 0, 0, 0, 0
1.926100000000000, 1, 1, 0, 0, 0, 0, 0, 0
1.926126000000000, 1, 0, 0, 0, 0, 0, 0, 0
1.926152000000000, 1, 1, 0, 0, 0, 0, 0, 0
1.926204000000000, 1, 0, 0, 0, 0, 0, 0, 0
1.926256000000000, 1, 1, 0, 0, 0, 0, 0, 0
1.926282000000000, 1, 0, 0, 0, 0, 0, 0, 0
1.926308000000000, 1, 1, 0, 0, 0, 0, 0, 0
1.926334000000000, 1, 0, 0, 0, 0, 0, 0, 0
1.926360041666667, 1, 1, 0, 0, 0, 0, 0, 0
1.926412041666667, 1, 0, 0, 0, 0, 0, 0, 0
1.926516041666667, 1, 1, 1, 0, 0, 0, 0, 0
1.926516083333333, 1, 1, 0, 0, 0, 0, 0, 0
1.926542041666667, 1, 0, 0, 0, 0, 0, 0, 0
1.926568041666667, 1, 1, 0, 0, 0, 0, 0, 0
1.926594041666667, 1, 0, 0, 0, 0, 0, 0, 0
1.926620041666667, 1, 1, 0, 0, 0, 0, 0, 0
1.926672041666667, 1, 0, 0, 0, 0, 0, 0, 0
1.926776083333333, 1, 1, 0, 0, 0, 0, 0, 0
1.926802083333333, 1, 0, 0, 0, 0, 0, 0, 0
1.926854083333333, 1, 1, 1, 0, 0, 0, 0, 0
1.926854125000000, 1, 1, 0, 0, 0, 0, 0, 0
1.926984083333333, 1, 0, 0, 0, 0, 0, 0, 0
1.927036083333334, 1, 1, 0, 0, 0, 0, 0, 0
1.929652916666667, 0, 1, 0, 0, 0, 0, 0, 0
1.929704916666667, 1, 1, 0, 0, 0, 0, 0, 0
1.929730916666667, 0, 1, 0, 0, 0, 0, 0, 0
1.929782916666667, 1, 1, 0, 0, 0, 0, 0, 0
1.929834916666667, 0, 1, 0, 0, 0, 0, 0, 0
1.929886916666667, 1, 1, 0, 0, 0, 0, 0, 0
1.929912916666667, 0, 1, 0, 0, 0, 0, 0, 0
1.929964958333333, 1, 1, 0, 0, 0, 0, 0, 0
1.929990958333333, 0, 1, 0, 0, 0, 0, 0, 0
1.930042958333333, 1, 1, 0, 0, 0, 0, 0, 0
1.930094958333334, 0, 1, 0, 0, 0, 0, 0, 0
1.930146958333333, 1, 1, 0, 0, 0, 0, 0, 0
1.930172958333333, 0, 1, 0, 0, 0, 0, 0, 0
1.930198958333333, 1, 1, 0, 0, 0, 0, 0, 0
1.930224958333334, 0, 1, 0, 0, 0, 0, 0, 0
1.930302958333334, 1, 1, 0, 0, 0, 0, 0, 0
1.930354958333333, 0, 1, 0, 0, 0, 0, 0, 0
1.930406958333333, 1, 1, 0, 0, 0, 0, 0, 0
1.930432958333334, 0, 1, 0, 0, 0, 0, 0, 0
1.930458958333333, 1, 1, 0, 0, 0, 0, 0, 0
1.930536958333333, 0, 1, 0, 0, 0, 0, 0, 0
1.930562958333333, 1, 1, 0, 0, 0, 0, 0, 0
1.930614958333333, 0, 1, 0, 0, 0, 0, 0, 0
1.930666958333333, 1, 1, 0, 0, 0, 0, 0, 0
1.930692958333333, 0, 1, 0, 0, 0, 0, 0, 0
1.930770958333333, 1, 1, 0, 0, 0, 0, 0, 0
1.930796958333334, 0, 1, 0, 0, 0, 0, 0, 0
1.930822958333333, 1, 1, 0, 0, 0, 0, 0, 0
1.930874958333334, 0, 1, 0, 0, 0, 0, 0, 0
1.930926958333333, 1, 1, 0, 0, 0, 0, 0, 0
1.930952958333333, 0, 1, 0, 0, 0, 0, 0, 0
1.930978958333333, 1, 1, 0, 0, 0, 0, 0, 0
1.931004958333334, 0, 1, 0, 0, 0, 0, 0, 0
1.931134958333333, 1, 1, 0, 0, 0, 0, 0, 0
1.931160958333333, 0, 1, 0, 0, 0, 0, 0, 0
1.931186958333333, 1, 1, 0, 0, 0, 0, 0, 0
1.931212958333334, 0, 1, 0, 0, 0, 0, 0, 0
1.931238958333333, 1, 1, 0, 0, 0, 0, 0, 0
1.931264958333333, 0, 1, 0, 0, 0, 0, 0, 0
1.931342958333333, 1, 1, 0, 0, 0, 0, 0, 0
1.931395000000000, 0, 1, 0, 0, 0, 0, 0, 0
1.931447000000000, 1, 1, 0, 0, 0, 0, 0, 0
1.931473000000000, 0, 1, 0, 0, 0, 0, 0, 0
1.931499000000000, 1, 1, 0, 0, 0, 0, 0, 0
1.931525000000000, 0, 1, 0, 0, 0, 0, 0, 0
1.931551000000000, 1, 1, 0, 0, 0, 0, 0, 0
1.931603000000000, 0, 1, 0, 0, 0, 0, 0, 0
1.931707000000000, 1, 1, 0, 0, 0, 0, 0, 0
2.069246250000000, 1, 0, 0, 0, 0, 0, 0, 0
2.069298291666667, 1, 1, 0, 0, 0, 0, 0, 0
2.069350291666667, 1, 0, 0, 0, 0, 0, 0, 0
2.069376291666667, 1, 1, 0, 0, 0, 0, 0, 0
2.069428291666667, 1, 0, 0, 0, 0, 0, 0, 0
2.069480291666667, 1, 1, 0, 0, 0, 0, 0, 0
2.069506291666667, 1, 0, 0, 0, 0, 0, 0, 0
2.069558291666667, 1, 1, 0, 0, 0, 0, 0, 0
2.069584291666667, 1, 0, 0, 0, 0, 0, 0, 0
2.069636291666667, 1, 1, 0, 0, 0, 0, 0, 0
2.069688333333334, 1, 0, 0, 0, 0, 0, 0, 0
2.069740333333333, 1, 1, 0, 0, 0, 0, 0, 0
2.070286375000000, 1, 0, 0, 0, 0, 0, 0, 0
2.070312375000000, 1, 1, 0, 0, 0, 0, 0, 0
2.070338375000000, 1, 0, 0, 0, 0, 0, 0, 0
2.070416416666667, 1, 1, 0, 0, 0, 0, 0, 0
2.070468416666667, 1, 0, 0, 0, 0, 0, 0, 0
2.070520416666667, 1, 1, 1, 0, 0, 0, 0, 0
2.070520458333334, 1, 1, 0, 0, 0, 0, 0, 0
2.070546416666667, 1, 0, 0, 0, 0, 0, 0, 0
2.070572416666667, 1, 1, 0, 0, 0, 0, 0, 0
2.070650416666667, 1, 0, 0, 0, 0, 0, 0, 0
2.070676416666667, 1, 1, 0, 0, 0, 0, 0, 0
2.070728416666667, 1, 0, 0, 0, 0, 0, 0, 0
2.070780458333334, 1, 1, 0, 0, 0, 0, 0, 0
2.071352500000000, 1, 0, 0, 0, 0, 0, 0, 0
2.071430500000000, 1, 1, 0, 0, 0, 0, 0, 0
2.071456500000000, 1, 0, 0, 0, 0, 0, 0, 0
2.071482541666667, 1, 1, 0, 0, 0, 0, 0, 0
2.071534541666667, 1, 0, 0, 0, 0, 0, 0, 0
2.071586541666667, 1, 1, 1, 0, 0, 0, 0, 0
2.071586583333334, 1, 1, 0, 0, 0, 0, 0, 0
2.071612541666667, 1, 0, 0, 0, 0, 0, 0, 0
2.071638541666667, 1, 1, 0, 0, 0, 0, 0, 0
2.071664541666667, 1, 0, 0, 0, 0, 0, 0, 0
2.071794541666667, 1, 1, 0, 0, 0, 0, 0, 0
2.071820541666667, 1, 0, 0, 0, 0, 0, 0, 0
2.071846583333333, 1, 1, 0, 0, 0, 0, 0, 0
2.072418625000000, 1, 0, 0, 0, 0, 0, 0, 0
2.072548625000000, 1, 1, 0, 0, 0, 0, 0, 0
2.072600666666667, 1, 0, 0, 0, 0, 0, 0, 0
2.072652666666667, 1, 1, 0, 0, 0, 0, 0, 0
2.072678666666667, 1, 0, 0, 0, 0, 0, 0, 0
2.072808666666667, 1, 1, 0, 0, 0, 0, 0, 0
2.072860666666667, 1, 0, 0, 0, 0, 0, 0, 0
2.072912666666667, 1, 1, 0, 0, 0, 0, 0, 0
2.093481041666667, 1, 0, 0, 0, 0, 0, 0, 0
2.093507041666667, 1, 1, 0, 0, 0, 0, 0, 0
2.093533041666667, 1, 0, 0, 0, 0, 0, 0, 0
2.093559041666667, 1, 1, 0, 0, 0, 0, 0, 0
2.093611041666667, 1, 0, 0, 0, 0, 0, 0, 0
2.093715041666667, 1, 1, 0, 0, 0, 0, 0, 0
2.093741041666667, 1, 0, 0, 0, 0, 0, 0, 0
2.093767041666667, 1, 1, 0, 0, 0, 0, 0, 0
2.093793041666667, 1, 0, 0, 0, 0, 0, 0, 0
2.093819041666667, 1, 1, 0, 0, 0, 0, 0, 0
2.093871083333334, 1, 0, 0, 0, 0, 0, 0, 0
2.093975083333333, 1, 1, 1, 0, 0, 0, 0, 0
2.093975125000000, 1, 1, 0, 0, 0, 0, 0, 0
2.094001083333334, 1, 0, 0, 0, 0, 0, 0, 0
2.094053083333333, 1, 1, 0, 0, 0, 0, 0, 0
2.094183083333333, 1, 0, 0, 0, 0, 0, 0, 0
2.094235125000000, 1, 1, 0, 0, 0, 0, 0, 0
2.096291791666667, 0, 1, 0, 0, 0, 0, 0, 0
2.096343791666667, 1, 1, 0, 0, 0, 0, 0, 0
2.096369791666667, 0, 1, 0, 0, 0, 0, 0, 0
2.096421791666667, 1, 1, 0, 0, 0, 0, 0, 0
2.096473791666667, 0, 1, 0, 0, 0, 0, 0, 0
2.096525791666667, 1, 1, 0, 0, 0, 0, 0, 0
2.096551791666667, 0, 1, 0, 0, 0, 0, 0, 0
2.096603791666667, 1, 1, 0, 0, 0, 0, 0, 0
2.096629791666667, 0, 1, 0, 0, 0, 0, 0, 0
2.096681791666667, 1, 1, 0, 0, 0, 0, 0, 0
2.096733791666667, 0, 1, 0, 0, 0, 0, 0, 0
2.096785833333334, 1, 1, 0, 0, 0, 0, 0, 0
2.096811833333334, 0, 1, 0, 0, 0, 0, 0, 0
2.096837833333333, 1, 1, 0, 0, 0, 0, 0, 0
2.096863833333333, 0, 1, 0, 0, 0, 0, 0, 0
2.096941833333334, 1, 1, 0, 0, 0, 0, 0, 0
2.096993833333333, 0, 1, 0, 0, 0, 0, 0, 0
2.097045833333333, 1, 1, 0, 0, 0, 0, 0, 0
2.097071833333334, 0, 1, 0, 0, 0, 0, 0, 0
2.097097833333334, 1, 1, 0, 0, 0, 0, 0, 0
2.097175833333333, 0, 1, 0, 0, 0, 0, 0, 0
2.097201833333334, 1, 1, 0, 0, 0, 0, 0, 0
2.097253833333333, 0, 1, 0, 0, 0, 0, 0, 0
2.097305833333333, 1, 1, 0, 0, 0, 0, 0, 0
2.097331833333334, 0, 1, 0, 0, 0, 0, 0, 0
2.097383833333334, 1, 1, 0, 0, 0, 0, 0, 0
2.097409833333333, 0, 1, 0, 0, 0, 0, 0, 0
2.097461833333333, 1, 1, 0, 0, 0, 0, 0, 0
2.097513833333334, 0, 1, 0, 0, 0, 0, 0, 0
2.097565833333333, 1, 1, 0, 0, 0, 0, 0, 0
2.097591833333333, 0, 1, 0, 0, 0, 0, 0, 0
2.097617833333334, 1, 1, 0, 0, 0, 0, 0, 0
2.097643833333334, 0, 1, 0, 0, 0, 0, 0, 0
2.097695833333333, 1, 1, 0, 0, 0, 0, 0, 0
2.097773833333334, 0, 1, 0, 0, 0, 0, 0, 0
2.097825833333333, 1, 1, 0, 0, 0, 0, 0, 0
2.097851833333333, 0, 1, 0, 0, 0, 0, 0, 0
2.097877833333333, 1, 1, 0, 0, 0, 0, 0, 0
2.097903833333334, 0, 1, 0, 0, 0, 0, 0, 0
2.097981833333333, 1, 1, 0, 0, 0, 0, 0, 0
2.098033833333333, 0, 1, 0, 0, 0, 0, 0, 0
2.098085833333334, 1, 1, 0, 0, 0, 0, 0, 0
2.098111833333333, 0, 1, 0, 0, 0, 0, 0, 0
2.098137833333333, 1, 1, 0, 0, 0, 0, 0, 0
2.098163875000000, 0, 1, 0, 0, 0, 0, 0, 0
2.098189833333334, 1, 1, 0, 0, 0, 0, 0, 0
2.098241875000000, 0, 1, 0, 0, 0, 0, 0, 0
2.098345875000000, 1, 1, 0, 0, 0, 0, 0, 0
2.233324916666667, 1, 0, 0, 0, 0, 0, 0, 0
2.233376916666667, 1, 1, 0, 0, 0, 0, 0, 0
2.233428916666667, 1, 0, 0, 0, 0, 0, 0, 0
2.233454916666667, 1, 1, 0, 0, 0, 0, 0, 0
2.233506958333333, 1, 0, 0, 0, 0, 0, 0, 0
2.233558958333334, 1, 1, 0, 0, 0, 0, 0, 0
2.233584958333334, 1, 0, 0, 0, 0, 0, 0, 0
2.233636958333333, 1, 1, 1, 0, 0, 0, 0, 0
2.233637000000000, 1, 1, 0, 0, 0, 0, 0, 0
2.233662958333333, 1, 0, 0, 0, 0, 0, 0, 0
2.233714958333334, 1, 1, 0, 0, 0, 0, 0, 0
2.233766958333333, 1, 0, 0, 0, 0, 0, 0, 0
2.233818958333333, 1, 1, 0, 0, 0, 0, 0, 0
2.234391041666667, 1, 0, 0, 0, 0, 0, 0, 0
2.234417041666667, 1, 1, 0, 0, 0, 0, 0, 0
2.234443041666667, 1, 0, 0, 0, 0, 0, 0, 0
2.234521041666667, 1, 1, 0, 0, 0, 0, 0, 0
2.234573041666667, 1, 0, 0, 0, 0, 0, 0, 0
2.234625083333333, 1, 1, 0, 0, 0, 0, 0, 0
2.234651083333334, 1, 0, 0, 0, 0, 0, 0, 0
2.234677083333334, 1, 1, 0, 0, 0, 0, 0, 0
2.234755083333333, 1, 0, 0, 0, 0, 0, 0, 0
2.234781083333333, 1, 1, 0, 0, 0, 0, 0, 0
2.234833083333334, 1, 0, 0, 0, 0, 0, 0, 0
2.234885083333333, 1, 1, 0, 0, 0, 0, 0, 0
2.235431166666667, 1, 0, 0, 0, 0, 0, 0, 0
2.235483166666667, 1, 1, 0, 0, 0, 0, 0, 0
2.235509166666667, 1, 0, 0, 0, 0, 0, 0, 0
2.235561166666667, 1, 1, 0, 0, 0, 0, 0, 0
2.235613166666667, 1, 0, 0, 0, 0, 0, 0, 0
2.235665166666667, 1, 1, 0, 0, 0, 0, 0, 0
2.235691208333333, 1, 0, 0, 0, 0, 0, 0, 0
2.235717208333333, 1, 1, 0, 0, 0, 0, 0, 0
2.235743208333334, 1, 0, 0, 0, 0, 0, 0, 0
2.235795208333334, 1, 1, 1, 0, 0, 0, 0, 0
2.235795250000000, 1, 1, 0, 0, 0, 0, 0, 0
2.235873208333333, 1, 0, 0, 0, 0, 0, 0, 0
2.235925208333334, 1, 1, 0, 0, 0, 0, 0, 0
2.236497291666667, 1, 0, 0, 0, 0, 0, 0, 0
2.236523291666667, 1, 1, 0, 0, 0, 0, 0, 0
2.236549291666667, 1, 0, 0, 0, 0, 0, 0, 0
2.236601291666667, 1, 1, 0, 0, 0, 0, 0, 0
2.236679291666667, 1, 0, 0, 0, 0, 0, 0, 0
2.236731291666667, 1, 1, 0, 0, 0, 0, 0, 0
2.236757291666667, 1, 0, 0, 0, 0, 0, 0, 0
2.236783333333333, 1, 1, 0, 0, 0, 0, 0, 0
2.236835333333334, 1, 0, 0, 0, 0, 0, 0, 0
2.236887333333334, 1, 1, 1, 0, 0, 0, 0, 0
2.236887375000000, 1, 1, 0, 0, 0, 0, 0, 0
2.236939333333333, 1, 0, 0, 0, 0, 0, 0, 0
2.236991333333334, 1, 1, 0, 0, 0, 0, 0, 0
2.257559666666667, 1, 0, 0, 0, 0, 0, 0, 0
2.257585666666667, 1, 1, 0, 0, 0, 0, 0, 0
2.257611666666667, 1, 0, 0, 0, 0, 0, 0, 0
2.257637666666667, 1, 1, 0, 0, 0, 0, 0, 0
2.257689708333333, 1, 0, 0, 0, 0, 0, 0, 0
2.257793708333333, 1, 1, 1, 0, 0, 0, 0, 0
2.257793750000000, 1, 1, 0, 0, 0, 0, 0, 0
2.257819708333333, 1, 0, 0, 0, 0, 0, 0, 0
2.257845708333333, 1, 1, 0, 0, 0, 0, 0, 0
2.257871708333334, 1, 0, 0, 0, 0, 0, 0, 0
2.257897708333334, 1, 1, 0, 0, 0, 0, 0, 0
2.257949708333333, 1, 0, 0, 0, 0, 0, 0, 0
2.258053750000000, 1, 1, 0, 0, 0, 0, 0, 0
2.258079750000000, 1, 0, 0, 0, 0, 0, 0, 0
2.258131750000000, 1, 1, 0, 0, 0, 0, 0, 0
2.258261750000000, 1, 0, 0, 0, 0, 0, 0, 0
2.258313750000000, 1, 1, 0, 0, 0, 0, 0, 0
2.262072625000000, 0, 1, 0, 0, 0, 0, 0, 0
2.262124625000000, 1, 1, 0, 0, 0, 0, 0, 0
2.262150666666667, 0, 1, 0, 0, 0, 0, 0, 0
2.262202666666667, 1, 1, 0, 0, 0, 0, 0, 0
2.262254666666667, 0, 1, 0, 0, 0, 0, 0, 0
2.262306666666667, 1, 1, 0, 0, 0, 0, 0, 0
2.262332666666667, 0, 1, 0, 0, 0, 0, 0, 0
2.262384666666667, 1, 1, 0, 0, 0, 0, 0, 0
2.262410666666667, 0, 1, 0, 0, 0, 0, 0, 0
2.262462666666667, 1, 1, 0, 0, 0, 0, 0, 0
2.262514666666667, 0, 1, 0, 0, 0, 0, 0, 0
2.262566666666667, 1, 1, 0, 0, 0, 0, 0, 0
2.262592666666667, 0, 1, 0, 0, 0, 0, 0, 0
2.262618666666667, 1, 1, 0, 0, 0, 0, 0, 0
2.262644666666667, 0, 1, 0, 0, 0, 0, 0, 0
2.262722666666667, 1, 1, 0, 0, 0, 0, 0, 0
2.262774666666667, 0, 1, 0, 0, 0, 0, 0, 0
2.262826666666667, 1, 1, 0, 0, 0, 0, 0, 0
2.262852666666667, 0, 1, 0, 0, 0, 0, 0, 0
2.262878666666667, 1, 1, 0, 0, 0, 0, 0, 0
2.262956666666667, 0, 1, 0, 0, 0, 0, 0, 0
2.262982666666667, 1, 1, 0, 0, 0, 0, 0, 0
2.263034666666667, 0, 1, 0, 0, 0, 0, 0, 0
2.263086666666667, 1, 1, 0, 0, 0, 0, 0, 0
2.263112666666667, 0, 1, 0, 0, 0, 0, 0, 0
2.263138666666667, 1, 1, 0, 0, 0, 0, 0, 0
2.263164666666667, 0, 1, 0, 0, 0, 0, 0, 0
2.263216666666667, 1, 1, 0, 0, 0, 0, 0, 0
2.263294666666667, 0, 1, 0, 0, 0, 0, 0, 0
2.263346666666667, 1, 1, 0, 0, 0, 0, 0, 0
2.263372666666667, 0, 1, 0, 0, 0, 0, 0, 0
2.263398666666667, 1, 1, 0, 0, 0, 0, 0, 0
2.263424666666667, 0, 1, 0, 0, 0, 0, 0, 0
2.263450666666667, 1, 1, 0, 0, 0, 0, 0, 0
2.263476666666667, 0, 1, 0, 0, 0, 0, 0, 0
2.263502666666667, 1, 1, 0, 0, 0, 0, 0, 0
2.263554708333333, 0, 1, 0, 0, 0, 0, 0, 0
2.263606666666667, 1, 1, 0, 0, 0, 0, 0, 0
2.263632708333334, 0, 1, 0, 0, 0, 0, 0, 0
2.263658708333333, 1, 1, 0, 0, 0, 0, 0, 0
2.263684708333333, 0, 1, 0, 0, 0, 0, 0, 0
2.263762708333334, 1, 1, 0, 0, 0, 0, 0, 0
2.263814708333333, 0, 1, 0, 0, 0, 0, 0, 0
2.263866708333333, 1, 1, 0, 0, 0, 0, 0, 0
2.263892708333334, 0, 1, 0, 0, 0, 0, 0, 0
2.263918708333334, 1, 1, 0, 0, 0, 0, 0, 0
2.263944708333333, 0, 1, 0, 0, 0, 0, 0, 0
2.263970708333333, 1, 1, 0, 0, 0, 0, 0, 0
2.264022708333334, 0, 1, 0, 0, 0, 0, 0, 0
2.264126708333333, 1, 1, 0, 0, 0, 0, 0, 0
2.397039541666667, 1, 0, 0, 0, 0, 0, 0, 0
2.397091541666667, 1, 1, 0, 0, 0, 0, 0, 0
2.397143541666667, 1, 0, 0, 0, 0, 0, 0, 0
2.397169541666667, 1, 1, 0, 0, 0, 0, 0, 0
2.397221541666667, 1, 0, 0, 0, 0, 0, 0, 0
2.397273541666667, 1, 1, 0, 0, 0, 0, 0, 0
2.397299583333333, 1, 0, 0, 0, 0, 0, 0, 0
2.397351583333334, 1, 1, 0, 0, 0, 0, 0, 0
2.397377583333333, 1, 0, 0, 0, 0, 0, 0, 0
2.397429583333333, 1, 1, 1, 0, 0, 0, 0, 0
2.397429625000000, 1, 1, 0, 0, 0, 0, 0, 0
2.397481583333334, 1, 0, 0, 0, 0, 0, 0, 0
2.397533583333333, 1, 1, 0, 0, 0, 0, 0, 0
2.398079666666667, 1, 0, 0, 0, 0, 0, 0, 0
2.398105666666667, 1, 1, 0, 0, 0, 0, 0, 0
2.398131666666667, 1, 0, 0, 0, 0, 0, 0, 0
2.398209666666667, 1, 1, 0, 0, 0, 0, 0, 0
2.398261666666667, 1, 0, 0, 0, 0, 0, 0, 0
2.398313666666667, 1, 1, 0, 0, 0, 0, 0, 0
2.398339666666667, 1, 0, 0, 0, 0, 0, 0, 0
2.398365666666667, 1, 1, 0, 0, 0, 0, 0, 0
2.398443708333334, 1, 0, 0, 0, 0, 0, 0, 0
2.398469708333333, 1, 1, 0, 0, 0, 0, 0, 0
2.398521708333333, 1, 0, 0, 0, 0, 0, 0, 0
2.398573708333334, 1, 1, 0, 0, 0, 0, 0, 0
2.399145791666667, 1, 0, 0, 0, 0, 0, 0, 0
2.399171791666667, 1, 1, 0, 0, 0, 0, 0, 0
2.399197791666667, 1, 0, 0, 0, 0, 0, 0, 0
2.399249791666667, 1, 1, 1, 0, 0, 0, 0, 0
2.399249833333334, 1, 1, 0, 0, 0, 0, 0, 0
2.399327791666667, 1, 0, 0, 0, 0, 0, 0, 0
2.399379791666667, 1, 1, 0, 0, 0, 0, 0, 0
2.399405791666667, 1, 0, 0, 0, 0, 0, 0, 0
2.399431791666667, 1, 1, 0, 0, 0, 0, 0, 0
2.399457791666667, 1, 0, 0, 0, 0, 0, 0, 0
2.399483791666667, 1, 1, 0, 0, 0, 0, 0, 0
2.399509833333334, 1, 0, 0, 0, 0, 0, 0, 0
2.399535833333334, 1, 1, 0, 0, 0, 0, 0, 0
2.399587833333333, 1, 0, 0, 0, 0, 0, 0, 0
2.399639833333334, 1, 1, 0, 0, 0, 0, 0, 0
2.400211916666667, 1, 0, 0, 0, 0, 0, 0, 0
2.400341916666667, 1, 1, 1, 0, 0, 0, 0, 0
2.400341958333334, 1, 1, 0, 0, 0, 0, 0, 0
2.400393916666667, 1, 0, 0, 0, 0, 0, 0, 0
2.400445916666667, 1, 1, 0, 0, 0, 0, 0, 0
2.400471916666667, 1, 0, 0, 0, 0, 0, 0, 0
2.400523916666667, 1, 1, 0, 0, 0, 0, 0, 0
2.400549916666667, 1, 0, 0, 0, 0, 0, 0, 0
2.400601958333334, 1, 1, 0, 0, 0, 0, 0, 0
2.400653958333333, 1, 0, 0, 0, 0, 0, 0, 0
2.400705958333333, 1, 1, 1, 0, 0, 0, 0, 0
2.400706000000000, 1, 1, 0, 0, 0, 0, 0, 0
2.421274291666667, 1, 0, 0, 0, 0, 0, 0, 0
2.421300291666667, 1, 1, 0, 0, 0, 0, 0, 0
2.421326291666667, 1, 0, 0, 0, 0, 0, 0, 0
2.421352291666667, 1, 1, 0, 0, 0, 0, 0, 0
2.421404291666667, 1, 0, 0, 0, 0, 0, 0, 0
2.421508333333334, 1, 1, 0, 0, 0, 0, 0, 0
2.421534333333334, 1, 0, 0, 0, 0, 0, 0, 0
2.421560333333333, 1, 1, 0, 0, 0, 0, 0, 0
2.421586333333333, 1, 0, 0, 0, 0, 0, 0, 0
2.421612333333333, 1, 1, 0, 0, 0, 0, 0, 0
2.421664333333334, 1, 0, 0, 0, 0, 0, 0, 0
2.421768333333334, 1, 1, 0, 0, 0, 0, 0, 0
2.421794333333334, 1, 0, 0, 0, 0, 0, 0, 0
2.421846333333333, 1, 1, 0, 0, 0, 0, 0, 0
2.421976375000000, 1, 0, 0, 0, 0, 0, 0, 0
2.422028375000000, 1, 1, 0, 0, 0, 0, 0, 0
2.425435416666667, 0, 1, 0, 0, 0, 0, 0, 0
2.425487416666667, 1, 1, 0, 0, 0, 0, 0, 0
2.425513416666667, 0, 1, 0, 0, 0, 0, 0, 0
2.425565416666667, 1, 1, 0, 0, 0, 0, 0, 0
2.425617416666667, 0, 1, 0, 0, 0, 0, 0, 0
2.425669416666667, 1, 1, 0, 0, 0, 0, 0, 0
2.425695416666667, 0, 1, 0, 0, 0, 0, 0, 0
2.425747416666667, 1, 1, 0, 0, 0, 0, 0, 0
2.425773416666667, 0, 1, 0, 0, 0, 0, 0, 0
2.425825416666667, 1, 1, 0, 0, 0, 0, 0, 0
