Time[s], Channel 0, Channel 1, Channel 2, Channel 3, Channel 4, Channel 5, Channel 6, Channel 7
0.000000000000000, 1, 1, 0, 0, 0, 0, 0, 0
2.019237208333334, 0, 1, 0, 0, 0, 0, 0, 0
2.019263208333333, 1, 1, 0, 0, 0, 0, 0, 0
2.019289208333333, 0, 1, 0, 0, 0, 0, 0, 0
2.019419208333333, 1, 1, 0, 0, 0, 0, 0, 0
2.019445208333333, 0, 1, 0, 0, 0, 0, 0, 0
2.019471208333333, 1, 1, 0, 0, 0, 0, 0, 0
2.019497208333334, 0, 1, 0, 0, 0, 0, 0, 0
2.019541416666667, 0, 0, 0, 0, 0, 0, 0, 0
2.019567416666667, 0, 1, 0, 0, 0, 0, 0, 0
2.019575208333333, 1, 1, 0, 0, 0, 0, 0, 0
2.019593416666667, 1, 0, 0, 0, 0, 0, 0, 0
2.019601250000000, 0, 0, 0, 0, 0, 0, 0, 0
2.019627250000000, 1, 0, 0, 0, 0, 0, 0, 0
2.019653250000000, 0, 0, 0, 0, 0, 0, 0, 0
2.019679250000000, 1, 0, 0, 0, 0, 0, 0, 0
2.019705250000000, 0, 0, 0, 0, 0, 0, 0, 0
2.019723416666667, 0, 1, 0, 0, 0, 0, 0, 0
2.019731250000000, 1, 1, 0, 0, 0, 0, 0, 0
2.019749416666667, 1, 0, 0, 0, 0, 0, 0, 0
2.019757250000000, 0, 0, 0, 0, 0, 0, 0, 0
2.019775416666667, 0, 1, 0, 0, 0, 0, 0, 0
2.019783250000000, 1, 1, 0, 0, 0, 0, 0, 0
2.019801416666667, 1, 0, 0, 0, 0, 0, 0, 0
2.019809250000000, 0, 0, 0, 0, 0, 0, 0, 0
2.019861250000000, 1, 0, 0, 0, 0, 0, 0, 0
2.019879416666667, 1, 1, 0, 0, 0, 0, 0, 0
2.019879500000000, 1, 1, 1, 0, 0, 0, 0, 0
2.019880208333333, 1, 1, 0, 0, 0, 0, 0, 0
2.019887250000000, 0, 1, 0, 0, 0, 0, 0, 0
2.019905458333334, 0, 0, 0, 0, 0, 0, 0, 0
2.019931458333334, 0, 1, 0, 0, 0, 0, 0, 0
2.019939250000000, 1, 1, 0, 0, 0, 0, 0, 0
2.019957458333333, 1, 0, 0, 0, 0, 0, 0, 0
2.019965250000000, 0, 0, 0, 0, 0, 0, 0, 0
2.019983458333333, 0, 1, 0, 0, 0, 0, 0, 0
2.019991250000000, 1, 1, 0, 0, 0, 0, 0, 0
2.020009458333333, 1, 0, 0, 0, 0, 0, 0, 0
2.020017250000000, 0, 0, 0, 0, 0, 0, 0, 0
2.020035458333334, 0, 1, 1, 0, 0, 0, 0, 0
2.020035500000000, 0, 1, 0, 0, 0, 0, 0, 0
2.020043250000000, 1, 1, 0, 0, 0, 0, 0, 0
2.020061458333334, 1, 0, 0, 0, 0, 0, 0, 0
2.020069250000000, 0, 0, 0, 0, 0, 0, 0, 0
2.020087458333333, 0, 1, 0, 0, 0, 0, 0, 0
2.020095250000000, 1, 1, 0, 0, 0, 0, 0, 0
2.020113458333333, 1, 0, 0, 0, 0, 0, 0, 0
2.020147250000000, 0, 0, 0, 0, 0, 0, 0, 0
2.020165458333333, 0, 1, 0, 0, 0, 0, 0, 0
2.020191458333334, 0, 0, 0, 0, 0, 0, 0, 0
2.020243458333333, 0, 1, 0, 0, 0, 0, 0, 0
2.020251250000000, 1, 1, 1, 0, 0, 0, 0, 0
2.020251291666667, 1, 1, 0, 0, 0, 0, 0, 0
2.020269500000000, 1, 0, 0, 0, 0, 0, 0, 0
2.020295500000000, 1, 1, 0, 0, 0, 0, 0, 0
2.020321500000000, 1, 0, 0, 0, 0, 0, 0, 0
2.020347500000000, 1, 1, 0, 0, 0, 0, 0, 0
2.020373500000000, 1, 0, 0, 0, 0, 0, 0, 0
2.020399500000000, 1, 1, 1, 0, 0, 0, 0, 0
2.020399541666667, 1, 1, 0, 0, 0, 0, 0, 0
2.020451500000000, 1, 0, 0, 0, 0, 0, 0, 0
2.020555500000000, 1, 1, 0, 0, 0, 0, 0, 0
2.023779875000000, 1, 0, 0, 0, 0, 0, 0, 0
2.023805875000000, 1, 1, 0, 0, 0, 0, 0, 0
2.023831875000000, 1, 0, 0, 0, 0, 0, 0, 0
2.023857875000000, 1, 1, 0, 0, 0, 0, 0, 0
2.023883875000000, 1, 0, 0, 0, 0, 0, 0, 0
2.023961916666667, 1, 1, 0, 0, 0, 0, 0, 0
2.023987916666667, 1, 0, 0, 0, 0, 0, 0, 0
2.024013916666667, 1, 1, 0, 0, 0, 0, 0, 0
2.024039916666667, 1, 0, 0, 0, 0, 0, 0, 0
2.024117916666667, 1, 1, 0, 0, 0, 0, 0, 0
2.024169916666667, 1, 0, 0, 0, 0, 0, 0, 0
2.024221916666667, 1, 1, 0, 0, 0, 0, 0, 0
2.024247916666667, 1, 0, 0, 0, 0, 0, 0, 0
2.024273958333334, 1, 1, 0, 0, 0, 0, 0, 0
2.024299958333334, 1, 0, 0, 0, 0, 0, 0, 0
2.024325958333333, 1, 1, 0, 0, 0, 0, 0, 0
2.024351958333333, 1, 0, 0, 0, 0, 0, 0, 0
2.024377958333333, 1, 1, 1, 0, 0, 0, 0, 0
2.024378000000000, 1, 1, 0, 0, 0, 0, 0, 0
2.024429958333334, 1, 0, 0, 0, 0, 0, 0, 0
2.024481958333333, 1, 1, 0, 0, 0, 0, 0, 0
2.024507958333333, 1, 0, 0, 0, 0, 0, 0, 0
2.024533958333333, 1, 1, 0, 0, 0, 0, 0, 0
2.024559958333334, 1, 0, 0, 0, 0, 0, 0, 0
2.024585958333334, 1, 1, 0, 0, 0, 0, 0, 0
2.024638000000000, 1, 0, 0, 0, 0, 0, 0, 0
2.024690000000000, 1, 1, 0, 0, 0, 0, 0, 0
2.024742000000000, 1, 0, 0, 0, 0, 0, 0, 0
2.024794000000000, 1, 1, 1, 0, 0, 0, 0, 0
2.024794041666667, 1, 1, 0, 0, 0, 0, 0, 0
2.024820000000000, 1, 0, 0, 0, 0, 0, 0, 0
2.024872000000000, 1, 1, 0, 0, 0, 0, 0, 0
2.024898000000000, 1, 0, 0, 0, 0, 0, 0, 0
2.024950000000000, 1, 1, 0, 0, 0, 0, 0, 0
2.025002041666667, 1, 0, 0, 0, 0, 0, 0, 0
2.025054041666667, 1, 1, 0, 0, 0, 0, 0, 0
2.025080041666667, 1, 0, 0, 0, 0, 0, 0, 0
2.025106041666667, 1, 1, 1, 0, 0, 0, 0, 0
2.025106083333334, 1, 1, 0, 0, 0, 0, 0, 0
2.025184041666667, 1, 0, 0, 0, 0, 0, 0, 0
2.025210041666667, 1, 1, 0, 0, 0, 0, 0, 0
2.025262041666667, 1, 0, 0, 0, 0, 0, 0, 0
2.025314041666667, 1, 1, 0, 0, 0, 0, 0, 0
2.025340041666667, 1, 0, 0, 0, 0, 0, 0, 0
2.025496083333334, 1, 1, 1, 0, 0, 0, 0, 0
2.025496125000000, 1, 1, 0, 0, 0, 0, 0, 0
2.025522083333334, 1, 0, 0, 0, 0, 0, 0, 0
2.025574083333333, 1, 1, 0, 0, 0, 0, 0, 0
2.025600083333333, 1, 0, 0, 0, 0, 0, 0, 0
2.025652083333334, 1, 1, 0, 0, 0, 0, 0, 0
2.025704083333333, 1, 0, 0, 0, 0, 0, 0, 0
2.025730125000000, 1, 1, 0, 0, 0, 0, 0, 0
2.025808125000000, 1, 0, 0, 0, 0, 0, 0, 0
2.025834125000000, 1, 1, 0, 0, 0, 0, 0, 0
2.025860125000000, 1, 0, 0, 0, 0, 0, 0, 0
2.025886125000000, 1, 1, 1, 0, 0, 0, 0, 0
2.025886166666667, 1, 1, 0, 0, 0, 0, 0, 0
2.025912125000000, 1, 0, 0, 0, 0, 0, 0, 0
2.025990125000000, 1, 1, 0, 0, 0, 0, 0, 0
2.026042125000000, 1, 0, 0, 0, 0, 0, 0, 0
2.026094166666667, 1, 1, 0, 0, 0, 0, 0, 0
2.026120166666667, 1, 0, 0, 0, 0, 0, 0, 0
2.026172166666667, 1, 1, 0, 0, 0, 0, 0, 0
2.026250166666667, 1, 0, 0, 0, 0, 0, 0, 0
2.026276166666667, 1, 1, 0, 0, 0, 0, 0, 0
2.026302166666667, 1, 0, 0, 0, 0, 0, 0, 0
2.026354166666667, 1, 1, 0, 0, 0, 0, 0, 0
2.026380166666667, 1, 0, 0, 0, 0, 0, 0, 0
2.026406166666667, 1, 1, 0, 0, 0, 0, 0, 0
2.026432166666667, 1, 0, 0, 0, 0, 0, 0, 0
2.026458208333334, 1, 1, 0, 0, 0, 0, 0, 0
2.026484208333334, 1, 0, 0, 0, 0, 0, 0, 0
2.026510208333333, 1, 1, 0, 0, 0, 0, 0, 0
2.026562208333333, 1, 0, 0, 0, 0, 0, 0, 0
2.026614208333334, 1, 1, 1, 0, 0, 0, 0, 0
2.026614250000000, 1, 1, 0, 0, 0, 0, 0, 0
2.026640208333333, 1, 0, 0, 0, 0, 0, 0, 0
2.026666208333333, 1, 1, 0, 0, 0, 0, 0, 0
2.026692208333333, 1, 0, 0, 0, 0, 0, 0, 0
2.026718208333333, 1, 1, 0, 0, 0, 0, 0, 0
2.026770208333334, 1, 0, 0, 0, 0, 0, 0, 0
2.026874250000000, 1, 1, 0, 0, 0, 0, 0, 0
2.026900250000000, 1, 0, 0, 0, 0, 0, 0, 0
2.026926250000000, 1, 1, 0, 0, 0, 0, 0, 0
2.026952250000000, 1, 0, 0, 0, 0, 0, 0, 0
2.026978250000000, 1, 1, 1, 0, 0, 0, 0, 0
2.026978291666667, 1, 1, 0, 0, 0, 0, 0, 0
2.027030250000000, 1, 0, 0, 0, 0, 0, 0, 0
2.027134250000000, 1, 1, 0, 0, 0, 0, 0, 0
2.027160250000000, 1, 0, 0, 0, 0, 0, 0, 0
2.027212291666667, 1, 1, 0, 0, 0, 0, 0, 0
2.027342291666667, 1, 0, 0, 0, 0, 0, 0, 0
2.027394291666667, 1, 1, 0, 0, 0, 0, 0, 0
2.030937541666667, 0, 1, 0, 0, 0, 0, 0, 0
2.030963541666667, 1, 1, 0, 0, 0, 0, 0, 0
2.030989541666667, 0, 1, 0, 0, 0, 0, 0, 0
2.031119583333334, 1, 1, 0, 0, 0, 0, 0, 0
2.031145583333334, 0, 1, 0, 0, 0, 0, 0, 0
2.031171583333333, 1, 1, 0, 0, 0, 0, 0, 0
2.031197583333333, 0, 1, 0, 0, 0, 0, 0, 0
2.031242750000000, 0, 0, 0, 0, 0, 0, 0, 0
2.031268750000000, 0, 1, 0, 0, 0, 0, 0, 0
2.031275583333334, 1, 1, 0, 0, 0, 0, 0, 0
2.031294750000000, 1, 0, 0, 0, 0, 0, 0, 0
2.031301583333334, 0, 0, 0, 0, 0, 0, 0, 0
2.031327583333333, 1, 0, 0, 0, 0, 0, 0, 0
2.031353583333333, 0, 0, 0, 0, 0, 0, 0, 0
2.031379583333333, 1, 0, 0, 0, 0, 0, 0, 0
2.031405583333334, 0, 0, 0, 0, 0, 0, 0, 0
2.031424750000000, 0, 1, 0, 0, 0, 0, 0, 0
2.031431583333334, 1, 1, 0, 0, 0, 0, 0, 0
2.031450750000000, 1, 0, 0, 0, 0, 0, 0, 0
2.031457583333333, 0, 0, 0, 0, 0, 0, 0, 0
2.031476750000000, 0, 1, 0, 0, 0, 0, 0, 0
2.031483583333333, 1, 1, 0, 0, 0, 0, 0, 0
2.031502750000000, 1, 0, 0, 0, 0, 0, 0, 0
2.031509583333333, 0, 0, 0, 0, 0, 0, 0, 0
2.031561583333334, 1, 0, 0, 0, 0, 0, 0, 0
2.031580791666667, 1, 1, 0, 0, 0, 0, 0, 0
2.031580833333333, 1, 1, 1, 0, 0, 0, 0, 0
2.031580916666667, 1, 1, 0, 0, 0, 0, 0, 0
2.031581000000000, 1, 1, 1, 0, 0, 0, 0, 0
2.031581375000000, 1, 1, 0, 0, 0, 0, 0, 0
2.031587583333334, 0, 1, 0, 0, 0, 0, 0, 0
2.031606791666667, 0, 0, 0, 0, 0, 0, 0, 0
2.031632791666667, 0, 1, 0, 0, 0, 0, 0, 0
2.031639583333333, 1, 1, 1, 0, 0, 0, 0, 0
2.031639625000000, 1, 1, 0, 0, 0, 0, 0, 0
2.031658791666667, 1, 0, 0, 0, 0, 0, 0, 0
2.031665583333333, 0, 0, 0, 0, 0, 0, 0, 0
2.031684791666667, 0, 1, 1, 0, 0, 0, 0, 0
2.031684833333333, 0, 1, 0, 0, 0, 0, 0, 0
2.031691583333334, 1, 1, 1, 0, 0, 0, 0, 0
2.031691625000000, 1, 1, 0, 0, 0, 0, 0, 0
2.031710791666667, 1, 0, 0, 0, 0, 0, 0, 0
2.031717583333334, 0, 0, 0, 0, 0, 0, 0, 0
2.031736791666667, 0, 1, 0, 0, 0, 0, 0, 0
2.031743583333333, 1, 1, 1, 0, 0, 0, 0, 0
2.031743625000000, 1, 1, 0, 0, 0, 0, 0, 0
2.031762791666667, 1, 0, 0, 0, 0, 0, 0, 0
2.031769583333333, 0, 0, 0, 0, 0, 0, 0, 0
2.031788791666667, 0, 1, 0, 0, 0, 0, 0, 0
2.031795583333333, 1, 1, 1, 0, 0, 0, 0, 0
2.031795625000000, 1, 1, 0, 0, 0, 0, 0, 0
2.031814791666667, 1, 0, 0, 0, 0, 0, 0, 0
2.031847583333334, 0, 0, 0, 0, 0, 0, 0, 0
2.031866791666667, 0, 1, 0, 0, 0, 0, 0, 0
2.031892791666667, 0, 0, 0, 0, 0, 0, 0, 0
2.031944833333334, 0, 1, 0, 0, 0, 0, 0, 0
2.031951583333333, 1, 1, 1, 0, 0, 0, 0, 0
2.031951625000000, 1, 1, 0, 0, 0, 0, 0, 0
2.031970833333333, 1, 0, 0, 0, 0, 0, 0, 0
2.031996833333333, 1, 1, 0, 0, 0, 0, 0, 0
2.032022833333333, 1, 0, 0, 0, 0, 0, 0, 0
2.032048833333334, 1, 1, 1, 0, 0, 0, 0, 0
2.032048875000000, 1, 1, 0, 0, 0, 0, 0, 0
2.032074833333334, 1, 0, 0, 0, 0, 0, 0, 0
2.032100833333333, 1, 1, 0, 0, 0, 0, 0, 0
2.032152833333333, 1, 0, 0, 0, 0, 0, 0, 0
2.032256833333333, 1, 1, 0, 0, 0, 0, 0, 0
2.035455208333333, 1, 0, 0, 0, 0, 0, 0, 0
2.035481208333334, 1, 1, 0, 0, 0, 0, 0, 0
2.035507208333334, 1, 0, 0, 0, 0, 0, 0, 0
2.035533208333333, 1, 1, 0, 0, 0, 0, 0, 0
2.035559250000000, 1, 0, 0, 0, 0, 0, 0, 0
2.035637250000000, 1, 1, 0, 0, 0, 0, 0, 0
2.035663250000000, 1, 0, 0, 0, 0, 0, 0, 0
2.035689250000000, 1, 1, 1, 0, 0, 0, 0, 0
2.035689291666667, 1, 1, 0, 0, 0, 0, 0, 0
2.035715250000000, 1, 0, 0, 0, 0, 0, 0, 0
2.035793250000000, 1, 1, 0, 0, 0, 0, 0, 0
2.035845250000000, 1, 0, 0, 0, 0, 0, 0, 0
2.035897250000000, 1, 1, 0, 0, 0, 0, 0, 0
2.035923291666667, 1, 0, 0, 0, 0, 0, 0, 0
2.035949291666667, 1, 1, 0, 0, 0, 0, 0, 0
2.035975291666667, 1, 0, 0, 0, 0, 0, 0, 0
2.036001291666667, 1, 1, 0, 0, 0, 0, 0, 0
2.036027291666667, 1, 0, 0, 0, 0, 0, 0, 0
2.036053291666667, 1, 1, 1, 0, 0, 0, 0, 0
2.036053333333333, 1, 1, 0, 0, 0, 0, 0, 0
2.036105291666667, 1, 0, 0, 0, 0, 0, 0, 0
2.036157291666667, 1, 1, 0, 0, 0, 0, 0, 0
2.036183291666667, 1, 0, 0, 0, 0, 0, 0, 0
2.036209291666667, 1, 1, 0, 0, 0, 0, 0, 0
2.036235291666667, 1, 0, 0, 0, 0, 0, 0, 0
2.036261291666667, 1, 1, 0, 0, 0, 0, 0, 0
2.036313333333334, 1, 0, 0, 0, 0, 0, 0, 0
2.036365333333333, 1, 1, 0, 0, 0, 0, 0, 0
2.036417333333334, 1, 0, 0, 0, 0, 0, 0, 0
2.036469333333333, 1, 1, 1, 0, 0, 0, 0, 0
2.036469375000000, 1, 1, 0, 0, 0, 0, 0, 0
2.036495333333333, 1, 0, 0, 0, 0, 0, 0, 0
2.036547333333333, 1, 1, 0, 0, 0, 0, 0, 0
2.036573333333334, 1, 0, 0, 0, 0, 0, 0, 0
2.036625333333333, 1, 1, 0, 0, 0, 0, 0, 0
2.036677375000000, 1, 0, 0, 0, 0, 0, 0, 0
2.036729375000000, 1, 1, 0, 0, 0, 0, 0, 0
2.036755375000000, 1, 0, 0, 0, 0, 0, 0, 0
2.036781375000000, 1, 1, 1, 0, 0, 0, 0, 0
2.036781416666667, 1, 1, 0, 0, 0, 0, 0, 0
2.036859375000000, 1, 0, 0, 0, 0, 0, 0, 0
2.036885375000000, 1, 1, 0, 0, 0, 0, 0, 0
2.036937375000000, 1, 0, 0, 0, 0, 0, 0, 0
2.036989375000000, 1, 1, 0, 0, 0, 0, 0, 0
2.037015416666667, 1, 0, 0, 0, 0, 0, 0, 0
2.037171416666667, 1, 1, 1, 0, 0, 0, 0, 0
2.037171458333333, 1, 1, 0, 0, 0, 0, 0, 0
2.037197416666667, 1, 0, 0, 0, 0, 0, 0, 0
2.037249416666667, 1, 1, 0, 0, 0, 0, 0, 0
2.037275416666667, 1, 0, 0, 0, 0, 0, 0, 0
2.037327416666667, 1, 1, 0, 0, 0, 0, 0, 0
2.037379416666667, 1, 0, 0, 0, 0, 0, 0, 0
2.037405458333334, 1, 1, 0, 0, 0, 0, 0, 0
2.037483458333333, 1, 0, 0, 0, 0, 0, 0, 0
2.037509458333334, 1, 1, 1, 0, 0, 0, 0, 0
2.037509500000000, 1, 1, 0, 0, 0, 0, 0, 0
2.037535458333334, 1, 0, 0, 0, 0, 0, 0, 0
2.037561458333333, 1, 1, 0, 0, 0, 0, 0, 0
2.037587458333333, 1, 0, 0, 0, 0, 0, 0, 0
2.037665458333334, 1, 1, 0, 0, 0, 0, 0, 0
2.037717458333333, 1, 0, 0, 0, 0, 0, 0, 0
2.037769500000000, 1, 1, 0, 0, 0, 0, 0, 0
2.037795500000000, 1, 0, 0, 0, 0, 0, 0, 0
2.037847500000000, 1, 1, 0, 0, 0, 0, 0, 0
2.037925500000000, 1, 0, 0, 0, 0, 0, 0, 0
2.037951500000000, 1, 1, 0, 0, 0, 0, 0, 0
2.037977500000000, 1, 0, 0, 0, 0, 0, 0, 0
2.038029500000000, 1, 1, 0, 0, 0, 0, 0, 0
2.038055500000000, 1, 0, 0, 0, 0, 0, 0, 0
2.038081500000000, 1, 1, 0, 0, 0, 0, 0, 0
2.038107500000000, 1, 0, 0, 0, 0, 0, 0, 0
2.038133541666667, 1, 1, 0, 0, 0, 0, 0, 0
2.038159541666667, 1, 0, 0, 0, 0, 0, 0, 0
2.038185541666667, 1, 1, 0, 0, 0, 0, 0, 0
2.038237541666667, 1, 0, 0, 0, 0, 0, 0, 0
2.038289541666667, 1, 1, 1, 0, 0, 0, 0, 0
2.038289583333333, 1, 1, 0, 0, 0, 0, 0, 0
2.038315541666667, 1, 0, 0, 0, 0, 0, 0, 0
2.038341541666667, 1, 1, 0, 0, 0, 0, 0, 0
2.038367541666667, 1, 0, 0, 0, 0, 0, 0, 0
2.038393541666667, 1, 1, 0, 0, 0, 0, 0, 0
2.038445541666667, 1, 0, 0, 0, 0, 0, 0, 0
2.038549583333333, 1, 1, 0, 0, 0, 0, 0, 0
2.038575583333333, 1, 0, 0, 0, 0, 0, 0, 0
2.038601583333334, 1, 1, 1, 0, 0, 0, 0, 0
2.038601625000000, 1, 1, 0, 0, 0, 0, 0, 0
2.038627583333334, 1, 0, 0, 0, 0, 0, 0, 0
2.038653583333333, 1, 1, 1, 0, 0, 0, 0, 0
2.038653625000000, 1, 1, 0, 0, 0, 0, 0, 0
2.038705583333333, 1, 0, 0, 0, 0, 0, 0, 0
2.038809583333333, 1, 1, 0, 0, 0, 0, 0, 0
2.038835583333333, 1, 0, 0, 0, 0, 0, 0, 0
2.038887625000000, 1, 1, 0, 0, 0, 0, 0, 0
2.039017625000000, 1, 0, 0, 0, 0, 0, 0, 0
2.039069625000000, 1, 1, 0, 0, 0, 0, 0, 0
2.042533916666667, 0, 1, 0, 0, 0, 0, 0, 0
2.042559916666667, 1, 1, 0, 0, 0, 0, 0, 0
2.042585916666667, 0, 1, 0, 0, 0, 0, 0, 0
2.042715916666667, 1, 1, 0, 0, 0, 0, 0, 0
2.042741916666667, 0, 1, 0, 0, 0, 0, 0, 0
2.042767916666667, 1, 1, 0, 0, 0, 0, 0, 0
2.042793916666667, 0, 1, 0, 0, 0, 0, 0, 0
2.042840083333334, 0, 0, 0, 0, 0, 0, 0, 0
2.042866083333334, 0, 1, 0, 0, 0, 0, 0, 0
2.042871916666667, 1, 1, 0, 0, 0, 0, 0, 0
2.042892083333333, 1, 0, 0, 0, 0, 0, 0, 0
2.042897916666667, 0, 0, 0, 0, 0, 0, 0, 0
2.042923916666667, 1, 0, 0, 0, 0, 0, 0, 0
2.042949916666667, 0, 0, 0, 0, 0, 0, 0, 0
2.042975916666667, 1, 0, 0, 0, 0, 0, 0, 0
2.043001916666667, 0, 0, 0, 0, 0, 0, 0, 0
2.043022083333333, 0, 1, 1, 0, 0, 0, 0, 0
2.043022125000000, 0, 1, 0, 0, 0, 0, 0, 0
2.043027916666667, 1, 1, 1, 0, 0, 0, 0, 0
2.043027958333334, 1, 1, 0, 0, 0, 0, 0, 0
2.043048083333333, 1, 0, 0, 0, 0, 0, 0, 0
2.043053916666667, 0, 0, 0, 0, 0, 0, 0, 0
2.043074083333333, 0, 1, 0, 0, 0, 0, 0, 0
2.043079916666667, 1, 1, 1, 0, 0, 0, 0, 0
2.043079958333334, 1, 1, 0, 0, 0, 0, 0, 0
2.043100083333333, 1, 0, 0, 0, 0, 0, 0, 0
2.043157916666667, 0, 0, 0, 0, 0, 0, 0, 0
2.043178083333333, 0, 1, 0, 0, 0, 0, 0, 0
2.043183916666667, 1, 1, 1, 0, 0, 0, 0, 0
2.043183958333334, 1, 1, 0, 0, 0, 0, 0, 0
2.043204083333333, 1, 0, 0, 0, 0, 0, 0, 0
2.043209916666667, 0, 0, 0, 0, 0, 0, 0, 0
2.043230125000000, 0, 1, 0, 0, 0, 0, 0, 0
2.043235916666667, 1, 1, 1, 0, 0, 0, 0, 0
2.043235958333333, 1, 1, 0, 0, 0, 0, 0, 0
2.043256125000000, 1, 0, 0, 0, 0, 0, 0, 0
2.043261916666667, 0, 0, 0, 0, 0, 0, 0, 0
2.043282125000000, 0, 1, 0, 0, 0, 0, 0, 0
2.043287916666667, 1, 1, 1, 0, 0, 0, 0, 0
2.043287958333333, 1, 1, 0, 0, 0, 0, 0, 0
2.043308125000000, 1, 0, 0, 0, 0, 0, 0, 0
2.043313916666667, 0, 0, 0, 0, 0, 0, 0, 0
2.043334125000000, 0, 1, 0, 0, 0, 0, 0, 0
2.043339916666667, 1, 1, 1, 0, 0, 0, 0, 0
2.043339958333334, 1, 1, 0, 0, 0, 0, 0, 0
2.043360125000000, 1, 0, 0, 0, 0, 0, 0, 0
2.043386125000000, 1, 1, 1, 0, 0, 0, 0, 0
2.043386166666667, 1, 1, 0, 0, 0, 0, 0, 0
2.043391916666667, 0, 1, 0, 0, 0, 0, 0, 0
2.043443916666667, 1, 1, 0, 0, 0, 0, 0, 0
2.043464125000000, 1, 0, 0, 0, 0, 0, 0, 0
2.043469916666667, 0, 0, 0, 0, 0, 0, 0, 0
2.043490125000000, 0, 1, 0, 0, 0, 0, 0, 0
2.043495916666667, 1, 1, 1, 0, 0, 0, 0, 0
2.043495958333334, 1, 1, 0, 0, 0, 0, 0, 0
2.043516125000000, 1, 0, 0, 0, 0, 0, 0, 0
2.043521916666667, 0, 0, 0, 0, 0, 0, 0, 0
2.043542125000000, 0, 1, 0, 0, 0, 0, 0, 0
2.043547916666667, 1, 1, 1, 0, 0, 0, 0, 0
2.043547958333333, 1, 1, 0, 0, 0, 0, 0, 0
2.043568125000000, 1, 0, 0, 0, 0, 0, 0, 0
2.043573916666667, 0, 0, 0, 0, 0, 0, 0, 0
2.043594166666667, 0, 1, 0, 0, 0, 0, 0, 0
2.043599916666667, 1, 1, 1, 0, 0, 0, 0, 0
2.043599958333334, 1, 1, 0, 0, 0, 0, 0, 0
2.043620166666667, 1, 0, 0, 0, 0, 0, 0, 0
2.043625916666667, 0, 0, 0, 0, 0, 0, 0, 0
2.043646166666667, 0, 1, 0, 0, 0, 0, 0, 0
2.043651916666667, 1, 1, 1, 0, 0, 0, 0, 0
2.043651958333333, 1, 1, 0, 0, 0, 0, 0, 0
2.043698166666667, 1, 0, 0, 0, 0, 0, 0, 0
2.043703916666667, 0, 0, 0, 0, 0, 0, 0, 0
2.043750166666667, 0, 1, 1, 0, 0, 0, 0, 0
2.043750208333333, 0, 1, 0, 0, 0, 0, 0, 0
2.043776166666667, 0, 0, 0, 0, 0, 0, 0, 0
2.043802166666667, 0, 1, 0, 0, 0, 0, 0, 0
2.043807916666667, 1, 1, 0, 0, 0, 0, 0, 0
2.043828166666667, 1, 0, 0, 0, 0, 0, 0, 0
2.043854166666667, 1, 1, 0, 0, 0, 0, 0, 0
2.043880166666667, 1, 0, 0, 0, 0, 0, 0, 0
2.043906166666667, 1, 1, 0, 0, 0, 0, 0, 0
2.043932166666667, 1, 0, 0, 0, 0, 0, 0, 0
2.043958208333334, 1, 1, 0, 0, 0, 0, 0, 0
2.044010208333333, 1, 0, 0, 0, 0, 0, 0, 0
2.044114208333333, 1, 1, 1, 0, 0, 0, 0, 0
2.044114250000000, 1, 1, 0, 0, 0, 0, 0, 0
2.047805125000000, 1, 0, 0, 0, 0, 0, 0, 0
2.047831125000000, 1, 1, 0, 0, 0, 0, 0, 0
2.047857125000000, 1, 0, 0, 0, 0, 0, 0, 0
2.047883125000000, 1, 1, 0, 0, 0, 0, 0, 0
2.047935125000000, 1, 0, 0, 0, 0, 0, 0, 0
2.048039166666667, 1, 1, 0, 0, 0, 0, 0, 0
2.048065166666667, 1, 0, 0, 0, 0, 0, 0, 0
2.048091166666667, 1, 1, 1, 0, 0, 0, 0, 0
2.048091208333334, 1, 1, 0, 0, 0, 0, 0, 0
2.048117166666667, 1, 0, 0, 0, 0, 0, 0, 0
2.048143166666667, 1, 1, 0, 0, 0, 0, 0, 0
2.048195166666667, 1, 0, 0, 0, 0, 0, 0, 0
2.048299166666667, 1, 1, 0, 0, 0, 0, 0, 0
2.048325208333333, 1, 0, 0, 0, 0, 0, 0, 0
2.048351208333334, 1, 1, 0, 0, 0, 0, 0, 0
2.048377208333334, 1, 0, 0, 0, 0, 0, 0, 0
2.048403208333334, 1, 1, 0, 0, 0, 0, 0, 0
2.048429208333333, 1, 0, 0, 0, 0, 0, 0, 0
2.048507208333334, 1, 1, 1, 0, 0, 0, 0, 0
2.048507250000000, 1, 1, 0, 0, 0, 0, 0, 0
2.048533208333334, 1, 0, 0, 0, 0, 0, 0, 0
2.048559208333333, 1, 1, 0, 0, 0, 0, 0, 0
2.048585208333333, 1, 0, 0, 0, 0, 0, 0, 0
2.048663208333334, 1, 1, 0, 0, 0, 0, 0, 0
2.048715250000000, 1, 0, 0, 0, 0, 0, 0, 0
2.048767250000000, 1, 1, 0, 0, 0, 0, 0, 0
2.048793250000000, 1, 0, 0, 0, 0, 0, 0, 0
2.048819250000000, 1, 1, 1, 0, 0, 0, 0, 0
2.048819291666667, 1, 1, 0, 0, 0, 0, 0, 0
2.048845250000000, 1, 0, 0, 0, 0, 0, 0, 0
2.048871250000000, 1, 1, 0, 0, 0, 0, 0, 0
2.048897250000000, 1, 0, 0, 0, 0, 0, 0, 0
2.048923250000000, 1, 1, 0, 0, 0, 0, 0, 0
2.048975250000000, 1, 0, 0, 0, 0, 0, 0, 0
2.049027250000000, 1, 1, 0, 0, 0, 0, 0, 0
2.049053291666667, 1, 0, 0, 0, 0, 0, 0, 0
2.049079291666667, 1, 1, 0, 0, 0, 0, 0, 0
2.049105291666667, 1, 0, 0, 0, 0, 0, 0, 0
2.049131291666667, 1, 1, 0, 0, 0, 0, 0, 0
2.049183291666667, 1, 0, 0, 0, 0, 0, 0, 0
2.049235291666667, 1, 1, 1, 0, 0, 0, 0, 0
2.049235333333333, 1, 1, 0, 0, 0, 0, 0, 0
2.049287291666667, 1, 0, 0, 0, 0, 0, 0, 0
2.049339291666667, 1, 1, 0, 0, 0, 0, 0, 0
2.049365291666667, 1, 0, 0, 0, 0, 0, 0, 0
2.049417333333333, 1, 1, 0, 0, 0, 0, 0, 0
2.049443333333334, 1, 0, 0, 0, 0, 0, 0, 0
2.049495333333334, 1, 1, 0, 0, 0, 0, 0, 0
2.049547333333333, 1, 0, 0, 0, 0, 0, 0, 0
2.049599333333334, 1, 1, 1, 0, 0, 0, 0, 0
2.049599375000000, 1, 1, 0, 0, 0, 0, 0, 0
2.049625333333334, 1, 0, 0, 0, 0, 0, 0, 0
2.049651333333333, 1, 1, 0, 0, 0, 0, 0, 0
2.049729333333334, 1, 0, 0, 0, 0, 0, 0, 0
2.049755333333334, 1, 1, 0, 0, 0, 0, 0, 0
2.049807375000000, 1, 0, 0, 0, 0, 0, 0, 0
2.049859375000000, 1, 1, 0, 0, 0, 0, 0, 0
2.049885375000000, 1, 0, 0, 0, 0, 0, 0, 0
2.050041375000000, 1, 1, 0, 0, 0, 0, 0, 0
2.050067375000000, 1, 0, 0, 0, 0, 0, 0, 0
2.050119375000000, 1, 1, 0, 0, 0, 0, 0, 0
2.050145416666667, 1, 0, 0, 0, 0, 0, 0, 0
2.050197416666667, 1, 1, 0, 0, 0, 0, 0, 0
2.050249416666667, 1, 0, 0, 0, 0, 0, 0, 0
2.050275416666667, 1, 1, 1, 0, 0, 0, 0, 0
2.050275458333334, 1, 1, 0, 0, 0, 0, 0, 0
2.050353416666667, 1, 0, 0, 0, 0, 0, 0, 0
2.050379416666667, 1, 1, 0, 0, 0, 0, 0, 0
2.050405416666667, 1, 0, 0, 0, 0, 0, 0, 0
2.050431416666667, 1, 1, 0, 0, 0, 0, 0, 0
